time,V(vout),V(vy)
0.00E+00,5.00E-06,0.00E+00
1.00E-17,5.00E-06,1.00E-02
2.00E-17,5.00E-06,2.00E-02
4.00E-17,5.00E-06,4.00E-02
8.00E-17,5.02E-06,8.00E-02
1.60E-16,5.25E-06,1.60E-01
3.20E-16,7.43E-06,3.20E-01
6.40E-16,1.99E-05,6.40E-01
1.00E-15,4.41E-05,1.00E+00
1.06E-15,5.19E-05,1.00E+00
1.19E-15,6.90E-05,1.00E+00
1.45E-15,1.07E-04,1.00E+00
1.96E-15,1.85E-04,1.00E+00
2.98E-15,3.21E-04,1.00E+00
5.03E-15,5.16E-04,1.00E+00
8.86E-15,7.36E-04,1.00E+00
1.51E-14,9.13E-04,1.00E+00
2.30E-14,9.98E-04,1.00E+00
3.88E-14,1.03E-03,1.00E+00
7.03E-14,1.01E-03,1.00E+00
1.33E-13,9.14E-04,1.00E+00
2.60E-13,6.96E-04,1.00E+00
5.12E-13,3.17E-04,1.00E+00
1.02E-12,-1.85E-04,1.00E+00
2.03E-12,-6.46E-04,1.00E+00
4.05E-12,-7.66E-04,1.00E+00
8.08E-12,-1.19E-03,1.00E+00
1.56E-11,3.91E-03,1.00E+00
2.16E-11,6.98E-02,1.00E+00
2.60E-11,2.41E-01,1.00E+00
3.09E-11,5.53E-01,1.00E+00
3.41E-11,7.47E-01,1.00E+00
3.81E-11,8.95E-01,1.00E+00
4.32E-11,9.73E-01,1.00E+00
4.81E-11,9.94E-01,1.00E+00
5.41E-11,9.99E-01,1.00E+00
6.27E-11,1.00E+00,1.00E+00
8.00E-11,1.00E+00,1.00E+00
1.14E-10,1.00E+00,1.00E+00
1.53E-10,1.00E+00,1.00E+00
1.93E-10,1.00E+00,1.00E+00
2.32E-10,1.00E+00,1.00E+00
2.71E-10,1.00E+00,1.00E+00
3.10E-10,1.00E+00,1.00E+00
3.49E-10,1.00E+00,1.00E+00
3.88E-10,1.00E+00,1.00E+00
4.27E-10,1.00E+00,1.00E+00
4.66E-10,1.00E+00,1.00E+00
5.05E-10,1.00E+00,1.00E+00
5.83E-10,1.00E+00,1.00E+00
6.61E-10,1.00E+00,1.00E+00
7.78E-10,1.00E+00,1.00E+00
8.96E-10,1.00E+00,1.00E+00
9.91E-10,1.00E+00,1.00E+00
1.09E-09,1.00E+00,1.00E+00
1.18E-09,1.00E+00,1.00E+00
1.28E-09,1.00E+00,1.00E+00
1.37E-09,1.00E+00,1.00E+00
1.46E-09,1.00E+00,1.00E+00
1.56E-09,1.00E+00,1.00E+00
1.64E-09,1.00E+00,1.00E+00
1.73E-09,1.00E+00,1.00E+00
1.81E-09,1.00E+00,1.00E+00
1.89E-09,1.00E+00,1.00E+00
1.98E-09,1.00E+00,1.00E+00
2.06E-09,1.00E+00,1.00E+00
2.15E-09,1.00E+00,1.00E+00
2.22E-09,1.00E+00,1.00E+00
2.34E-09,1.00E+00,1.00E+00
2.45E-09,1.00E+00,1.00E+00
2.56E-09,1.00E+00,1.00E+00
2.67E-09,1.00E+00,1.00E+00
2.78E-09,1.00E+00,1.00E+00
2.89E-09,1.00E+00,1.00E+00
3.01E-09,1.00E+00,1.00E+00
3.19E-09,1.00E+00,1.00E+00
3.37E-09,1.00E+00,1.00E+00
3.56E-09,1.00E+00,1.00E+00
3.74E-09,1.00E+00,1.00E+00
3.93E-09,1.00E+00,1.00E+00
4.11E-09,1.00E+00,1.00E+00
4.29E-09,1.00E+00,1.00E+00
4.66E-09,1.00E+00,1.00E+00
5.03E-09,1.00E+00,1.00E+00
5.40E-09,1.00E+00,1.00E+00
5.77E-09,1.00E+00,1.00E+00
6.14E-09,1.00E+00,1.00E+00
6.50E-09,1.00E+00,1.00E+00
6.87E-09,1.00E+00,1.00E+00
7.89E-09,1.00E+00,1.00E+00
7.93E-09,1.00E+00,1.00E+00
7.96E-09,1.00E+00,1.00E+00
8.00E-09,1.00E+00,1.00E+00
8.00E-09,1.00E+00,9.00E-01
8.00E-09,1.00E+00,7.00E-01
8.00E-09,1.00E+00,3.00E-01
8.00E-09,1.00E+00,0.00E+00
8.00E-09,1.00E+00,0.00E+00
8.00E-09,1.00E+00,0.00E+00
8.00E-09,1.00E+00,0.00E+00
8.00E-09,1.00E+00,0.00E+00
8.00E-09,1.00E+00,0.00E+00
8.00E-09,9.99E-01,0.00E+00
8.00E-09,9.99E-01,0.00E+00
8.00E-09,9.99E-01,0.00E+00
8.00E-09,9.99E-01,0.00E+00
8.00E-09,9.99E-01,0.00E+00
8.00E-09,9.99E-01,0.00E+00
8.00E-09,9.99E-01,0.00E+00
8.00E-09,1.00E+00,0.00E+00
8.00E-09,1.00E+00,0.00E+00
8.00E-09,1.00E+00,0.00E+00
8.00E-09,1.00E+00,0.00E+00
8.01E-09,1.00E+00,0.00E+00
8.01E-09,1.00E+00,0.00E+00
8.02E-09,1.00E+00,0.00E+00
8.02E-09,9.43E-01,0.00E+00
8.03E-09,7.56E-01,0.00E+00
8.03E-09,4.37E-01,0.00E+00
8.03E-09,2.43E-01,0.00E+00
8.04E-09,1.02E-01,0.00E+00
8.04E-09,3.06E-02,0.00E+00
8.05E-09,1.06E-02,0.00E+00
8.05E-09,4.45E-03,0.00E+00
8.06E-09,1.59E-03,0.00E+00
8.08E-09,2.41E-04,0.00E+00
8.10E-09,-9.13E-06,0.00E+00
8.14E-09,6.67E-06,0.00E+00
8.18E-09,4.23E-06,0.00E+00
8.22E-09,5.45E-06,0.00E+00
8.26E-09,4.88E-06,0.00E+00
8.30E-09,5.13E-06,0.00E+00
8.44E-09,5.11E-06,0.00E+00
8.58E-09,5.11E-06,0.00E+00
8.72E-09,5.12E-06,0.00E+00
8.86E-09,5.14E-06,0.00E+00
9.00E-09,5.17E-06,0.00E+00
9.14E-09,5.21E-06,0.00E+00
9.28E-09,5.25E-06,0.00E+00
9.67E-09,5.31E-06,0.00E+00
9.75E-09,5.66E-06,0.00E+00
1.06E-08,5.67E-06,0.00E+00
1.15E-08,5.65E-06,0.00E+00
1.24E-08,5.61E-06,0.00E+00
1.33E-08,5.55E-06,0.00E+00
1.42E-08,5.46E-06,0.00E+00
1.50E-08,5.36E-06,0.00E+00
1.59E-08,5.22E-06,0.00E+00
1.60E-08,5.12E-06,0.00E+00
1.60E-08,5.12E-06,0.00E+00
1.60E-08,5.04E-06,0.00E+00
1.60E-08,5.50E-06,0.00E+00
1.60E-08,5.38E-06,0.00E+00
1.60E-08,5.05E-06,0.00E+00
1.60E-08,4.95E-06,0.00E+00
1.60E-08,4.91E-06,0.00E+00
1.60E-08,4.96E-06,0.00E+00
1.60E-08,1.32E-05,0.00E+00
1.60E-08,1.35E-05,1.00E-01
1.60E-08,1.66E-05,3.00E-01
1.60E-08,3.25E-05,7.00E-01
1.60E-08,5.31E-05,1.00E+00
1.60E-08,6.30E-05,1.00E+00
1.60E-08,8.48E-05,1.00E+00
1.60E-08,1.33E-04,1.00E+00
1.60E-08,2.28E-04,1.00E+00
1.60E-08,3.83E-04,1.00E+00
1.60E-08,5.94E-04,1.00E+00
1.60E-08,8.03E-04,1.00E+00
1.60E-08,9.44E-04,1.00E+00
1.60E-08,1.01E-03,1.00E+00
1.60E-08,1.03E-03,1.00E+00
1.60E-08,9.95E-04,1.00E+00
1.60E-08,8.68E-04,1.00E+00
1.60E-08,6.09E-04,1.00E+00
1.60E-08,1.88E-04,1.00E+00
1.60E-08,-3.20E-04,1.00E+00
1.60E-08,-7.32E-04,1.00E+00
1.60E-08,-6.76E-04,1.00E+00
1.60E-08,-1.38E-03,1.00E+00
1.60E-08,1.41E-02,1.00E+00
1.60E-08,1.27E-01,1.00E+00
1.60E-08,3.52E-01,1.00E+00
1.60E-08,6.70E-01,1.00E+00
1.60E-08,8.43E-01,1.00E+00
1.60E-08,9.46E-01,1.00E+00
1.60E-08,9.86E-01,1.00E+00
1.61E-08,9.97E-01,1.00E+00
1.61E-08,9.99E-01,1.00E+00
1.61E-08,1.00E+00,1.00E+00
1.61E-08,1.00E+00,1.00E+00
1.61E-08,1.00E+00,1.00E+00
1.62E-08,1.00E+00,1.00E+00
1.62E-08,1.00E+00,1.00E+00
1.63E-08,1.00E+00,1.00E+00
1.63E-08,1.00E+00,1.00E+00
1.63E-08,1.00E+00,1.00E+00
1.64E-08,1.00E+00,1.00E+00
1.64E-08,1.00E+00,1.00E+00
1.64E-08,1.00E+00,1.00E+00
1.65E-08,1.00E+00,1.00E+00
1.66E-08,1.00E+00,1.00E+00
1.66E-08,1.00E+00,1.00E+00
1.68E-08,1.00E+00,1.00E+00
1.69E-08,1.00E+00,1.00E+00
1.70E-08,1.00E+00,1.00E+00
1.71E-08,1.00E+00,1.00E+00
1.71E-08,1.00E+00,1.00E+00
1.72E-08,1.00E+00,1.00E+00
1.73E-08,1.00E+00,1.00E+00
1.74E-08,1.00E+00,1.00E+00
1.75E-08,1.00E+00,1.00E+00
1.76E-08,1.00E+00,1.00E+00
1.77E-08,1.00E+00,1.00E+00
1.78E-08,1.00E+00,1.00E+00
1.79E-08,1.00E+00,1.00E+00
1.80E-08,1.00E+00,1.00E+00
1.81E-08,1.00E+00,1.00E+00
1.82E-08,1.00E+00,1.00E+00
1.83E-08,1.00E+00,1.00E+00
1.84E-08,1.00E+00,1.00E+00
1.85E-08,1.00E+00,1.00E+00
1.86E-08,1.00E+00,1.00E+00
1.87E-08,1.00E+00,1.00E+00
1.88E-08,1.00E+00,1.00E+00
1.89E-08,1.00E+00,1.00E+00
1.90E-08,1.00E+00,1.00E+00
1.91E-08,1.00E+00,1.00E+00
1.93E-08,1.00E+00,1.00E+00
1.95E-08,1.00E+00,1.00E+00
1.97E-08,1.00E+00,1.00E+00
1.99E-08,1.00E+00,1.00E+00
2.01E-08,1.00E+00,1.00E+00
2.02E-08,1.00E+00,1.00E+00
2.04E-08,1.00E+00,1.00E+00
2.08E-08,1.00E+00,1.00E+00
2.12E-08,1.00E+00,1.00E+00
2.16E-08,1.00E+00,1.00E+00
2.19E-08,1.00E+00,1.00E+00
2.23E-08,1.00E+00,1.00E+00
2.27E-08,1.00E+00,1.00E+00
2.30E-08,1.00E+00,1.00E+00
2.39E-08,1.00E+00,1.00E+00
2.39E-08,1.00E+00,1.00E+00
2.40E-08,1.00E+00,1.00E+00
2.40E-08,1.00E+00,1.00E+00
2.40E-08,1.00E+00,1.00E+00
2.40E-08,1.00E+00,1.00E+00
2.40E-08,1.00E+00,1.00E+00
2.40E-08,1.00E+00,9.00E-01
2.40E-08,1.00E+00,7.00E-01
2.40E-08,1.00E+00,3.00E-01
2.40E-08,1.00E+00,0.00E+00
2.40E-08,1.00E+00,0.00E+00
2.40E-08,1.00E+00,0.00E+00
2.40E-08,1.00E+00,0.00E+00
2.40E-08,1.00E+00,0.00E+00
2.40E-08,1.00E+00,0.00E+00
2.40E-08,9.99E-01,0.00E+00
2.40E-08,9.99E-01,0.00E+00
2.40E-08,9.99E-01,0.00E+00
2.40E-08,9.99E-01,0.00E+00
2.40E-08,9.99E-01,0.00E+00
2.40E-08,9.99E-01,0.00E+00
2.40E-08,9.99E-01,0.00E+00
2.40E-08,1.00E+00,0.00E+00
2.40E-08,1.00E+00,0.00E+00
2.40E-08,1.00E+00,0.00E+00
2.40E-08,1.00E+00,0.00E+00
2.40E-08,1.00E+00,0.00E+00
2.40E-08,1.00E+00,0.00E+00
2.40E-08,1.00E+00,0.00E+00
2.40E-08,9.43E-01,0.00E+00
2.40E-08,7.56E-01,0.00E+00
2.40E-08,4.37E-01,0.00E+00
2.40E-08,2.43E-01,0.00E+00
2.40E-08,1.02E-01,0.00E+00
2.40E-08,3.06E-02,0.00E+00
2.40E-08,1.06E-02,0.00E+00
2.41E-08,4.45E-03,0.00E+00
2.41E-08,1.59E-03,0.00E+00
2.41E-08,2.41E-04,0.00E+00
2.41E-08,-9.11E-06,0.00E+00
2.41E-08,6.71E-06,0.00E+00
2.42E-08,4.25E-06,0.00E+00
2.42E-08,5.45E-06,0.00E+00
2.43E-08,4.88E-06,0.00E+00
2.43E-08,5.13E-06,0.00E+00
2.44E-08,5.12E-06,0.00E+00
2.46E-08,5.12E-06,0.00E+00
2.47E-08,5.12E-06,0.00E+00
2.49E-08,5.14E-06,0.00E+00
2.50E-08,5.17E-06,0.00E+00
2.52E-08,5.21E-06,0.00E+00
2.53E-08,5.26E-06,0.00E+00
2.54E-08,5.25E-06,0.00E+00
2.54E-08,5.24E-06,0.00E+00
2.54E-08,5.26E-06,0.00E+00
2.55E-08,5.28E-06,0.00E+00
2.55E-08,5.32E-06,0.00E+00
2.56E-08,5.38E-06,0.00E+00
2.56E-08,5.45E-06,0.00E+00
2.57E-08,5.64E-06,0.00E+00
2.66E-08,5.66E-06,0.00E+00
2.75E-08,5.65E-06,0.00E+00
2.83E-08,5.62E-06,0.00E+00
2.92E-08,5.56E-06,0.00E+00
3.01E-08,5.47E-06,0.00E+00
3.10E-08,5.36E-06,0.00E+00
3.19E-08,5.22E-06,0.00E+00
3.20E-08,5.12E-06,0.00E+00
3.20E-08,5.12E-06,0.00E+00
3.20E-08,5.04E-06,0.00E+00
3.20E-08,5.53E-06,0.00E+00
3.20E-08,5.40E-06,0.00E+00
3.20E-08,5.05E-06,0.00E+00
3.20E-08,5.00E-06,0.00E+00
3.20E-08,5.00E-06,0.00E+00
3.20E-08,4.70E-06,0.00E+00
3.20E-08,4.65E-06,0.00E+00
3.20E-08,4.83E-06,0.00E+00
3.20E-08,1.21E-05,0.00E+00
3.20E-08,1.24E-05,1.00E-01
3.20E-08,1.55E-05,3.00E-01
3.20E-08,3.16E-05,7.00E-01
3.20E-08,5.24E-05,1.00E+00
3.20E-08,6.23E-05,1.00E+00
3.20E-08,8.42E-05,1.00E+00
3.20E-08,1.32E-04,1.00E+00
3.20E-08,2.27E-04,1.00E+00
3.20E-08,3.83E-04,1.00E+00
3.20E-08,5.94E-04,1.00E+00
3.20E-08,8.03E-04,1.00E+00
3.20E-08,9.45E-04,1.00E+00
3.20E-08,1.01E-03,1.00E+00
3.20E-08,1.03E-03,1.00E+00
3.20E-08,9.95E-04,1.00E+00
3.20E-08,8.69E-04,1.00E+00
3.20E-08,6.09E-04,1.00E+00
3.20E-08,1.89E-04,1.00E+00
3.20E-08,-3.20E-04,1.00E+00
3.20E-08,-7.32E-04,1.00E+00
3.20E-08,-6.76E-04,1.00E+00
3.20E-08,-1.38E-03,1.00E+00
3.20E-08,1.41E-02,1.00E+00
3.20E-08,1.27E-01,1.00E+00
3.20E-08,3.52E-01,1.00E+00
3.20E-08,6.70E-01,1.00E+00
3.20E-08,8.43E-01,1.00E+00
3.20E-08,9.46E-01,1.00E+00
3.20E-08,9.86E-01,1.00E+00
3.21E-08,9.97E-01,1.00E+00
3.21E-08,9.99E-01,1.00E+00
3.21E-08,1.00E+00,1.00E+00
3.21E-08,1.00E+00,1.00E+00
3.21E-08,1.00E+00,1.00E+00
3.22E-08,1.00E+00,1.00E+00
3.22E-08,1.00E+00,1.00E+00
3.23E-08,1.00E+00,1.00E+00
3.23E-08,1.00E+00,1.00E+00
3.23E-08,1.00E+00,1.00E+00
3.24E-08,1.00E+00,1.00E+00
3.24E-08,1.00E+00,1.00E+00
3.24E-08,1.00E+00,1.00E+00
3.25E-08,1.00E+00,1.00E+00
3.26E-08,1.00E+00,1.00E+00
3.26E-08,1.00E+00,1.00E+00
3.28E-08,1.00E+00,1.00E+00
3.29E-08,1.00E+00,1.00E+00
3.29E-08,1.00E+00,1.00E+00
3.30E-08,1.00E+00,1.00E+00
3.31E-08,1.00E+00,1.00E+00
3.32E-08,1.00E+00,1.00E+00
3.33E-08,1.00E+00,1.00E+00
3.34E-08,1.00E+00,1.00E+00
3.35E-08,1.00E+00,1.00E+00
3.35E-08,1.00E+00,1.00E+00
3.37E-08,1.00E+00,1.00E+00
3.38E-08,1.00E+00,1.00E+00
3.39E-08,1.00E+00,1.00E+00
3.40E-08,1.00E+00,1.00E+00
3.41E-08,1.00E+00,1.00E+00
3.42E-08,1.00E+00,1.00E+00
3.43E-08,1.00E+00,1.00E+00
3.44E-08,1.00E+00,1.00E+00
3.45E-08,1.00E+00,1.00E+00
3.46E-08,1.00E+00,1.00E+00
3.47E-08,1.00E+00,1.00E+00
3.48E-08,1.00E+00,1.00E+00
3.49E-08,1.00E+00,1.00E+00
3.50E-08,1.00E+00,1.00E+00
3.51E-08,1.00E+00,1.00E+00
3.53E-08,1.00E+00,1.00E+00
3.55E-08,1.00E+00,1.00E+00
3.57E-08,1.00E+00,1.00E+00
3.59E-08,1.00E+00,1.00E+00
3.61E-08,1.00E+00,1.00E+00
3.62E-08,1.00E+00,1.00E+00
3.64E-08,1.00E+00,1.00E+00
3.68E-08,1.00E+00,1.00E+00
3.72E-08,1.00E+00,1.00E+00
3.76E-08,1.00E+00,1.00E+00
3.79E-08,1.00E+00,1.00E+00
3.83E-08,1.00E+00,1.00E+00
3.87E-08,1.00E+00,1.00E+00
3.90E-08,1.00E+00,1.00E+00
3.99E-08,1.00E+00,1.00E+00
3.99E-08,1.00E+00,1.00E+00
4.00E-08,1.00E+00,1.00E+00
4.00E-08,1.00E+00,1.00E+00
4.00E-08,1.00E+00,1.00E+00
4.00E-08,1.00E+00,1.00E+00
4.00E-08,1.00E+00,1.00E+00
